
T20E0 000:281 SEGGER J-Link V4.92 Log File (0001ms, 0266ms total)
T20E0 000:281 DLL Compiled: Sep 30 2014 09:33:42 (0001ms, 0266ms total)
T20E0 000:281 Logging started @ 2023-06-20 10:42 (0001ms, 0266ms total)
T20E0 000:282 JLINK_SetWarnOutHandler(...) (0000ms, 0266ms total)
T20E0 000:282 JLINK_OpenEx(...)
Firmware: J-Link V9 compiled May  7 2021 16:26:12
Hardware: V9.40
S/N: 69405494
Feature(s): RDI, GDB, FlashDL, FlashBP, JFlash  returns O.K. (0267ms, 0533ms total)
T20E0 000:549 JLINK_SetErrorOutHandler(...) (0000ms, 0533ms total)
T20E0 000:549 JLINK_ExecCommand("ProjectFile = "C:\Users\Lenovo\Desktop\各种资料管理\牡星湖杯\声源定位 （3个）\LED\led\MDK-ARM\JLinkSettings.ini"", ...)Device "UNSPECIFIED" selected (0 KB flash, 0 KB RAM).  returns 0x00 (0006ms, 0539ms total)
T20E0 000:559 JLINK_ExecCommand("Device = STM32F407ZG", ...)Device "STM32F407ZG" selected (1024 KB flash, 128 KB RAM).  returns 0x00 (0008ms, 0547ms total)
T20E0 000:568 JLINK_ExecCommand("DisableConnectionTimeout", ...)  returns 0x01 (0000ms, 0547ms total)
T20E0 000:568 JLINK_GetHardwareVersion()  returns 0x16F30 (0000ms, 0547ms total)
T20E0 000:568 JLINK_GetDLLVersion()  returns 49200 (0000ms, 0547ms total)
T20E0 000:568 JLINK_GetFirmwareString(...) (0000ms, 0547ms total)
T20E0 000:585 JLINK_GetDLLVersion()  returns 49200 (0000ms, 0547ms total)
T20E0 000:585 JLINK_GetCompileDateTime() (0000ms, 0547ms total)
T20E0 000:586 JLINK_GetFirmwareString(...) (0000ms, 0547ms total)
T20E0 000:589 JLINK_GetHardwareVersion()  returns 0x16F30 (0000ms, 0547ms total)
T20E0 000:599 JLINK_TIF_Select(JLINKARM_TIF_SWD)  returns 0x00 (0001ms, 0548ms total)
T20E0 000:600 JLINK_SetSpeed(5000) (0000ms, 0548ms total)
T20E0 000:600 JLINK_GetId() >0x108 TIF>Found SWD-DP with ID 0x2BA01477 >0x0D TIF> >0x28 TIF> >0x0D TIF> >0x28 TIF> >0x0D TIF> >0x21 TIF> >0x0D TIF> >0x28 TIF> >0x0D TIF> >0x28 TIF> >0x0D TIF> >0x28 TIF> >0x0D TIF> >0x21 TIF> >0x0D TIF> >0x21 TIF> >0x0D TIF> >0x28 TIF> >0x0D TIF> >0x21 TIF> >0x0D TIF> >0x21 TIF> >0x0D TIF> >0x28 TIF> >0x0D TIF> >0x21 TIF> >0x0D TIF> >0x21 TIF> >0x108 TIF>Found SWD-DP with ID 0x2BA01477 >0x0D TIF> >0x21 TIF> >0x0D TIF> >0x28 TIF> >0x0D TIF> >0x28 TIF> >0x0D TIF> >0x21 TIF>
 >0x0D TIF> >0x28 TIF> >0x0D TIF> >0x21 TIF> >0x0D TIF> >0x21 TIF> >0x0D TIF> >0x21 TIF> >0x0D TIF> >0x21 TIF> >0x0D TIF> >0x28 TIF> >0x0D TIF> >0x28 TIF> >0x0D TIF> >0x21 TIF> >0x0D TIF> >0x28 TIF> >0x0D TIF> >0x28 TIF> >0x0D TIF> >0x28 TIF> >0x0D TIF> >0x21 TIF> >0x0D TIF> >0x21 TIF> >0x0D TIF> >0x28 TIF> >0x0D TIF> >0x21 TIF> >0x0D TIF> >0x21 TIF>Found Cortex-M4 r0p1, Little endian. -- CPU_WriteMem(4 bytes @ 0xE0002000) -- CPU_ReadMem(4 bytes @ 0xE000EDF0) -- CPU_ReadMem(4 bytes @ 0xE0002000)
FPUnit: 6 code (BP) slots and 2 literal slots -- CPU_ReadMem(4 bytes @ 0xE000EDFC) -- CPU_ReadMem(4 bytes @ 0xE0001000) -- CPU_WriteMem(4 bytes @ 0xE0001000) -- CPU_ReadMem(4 bytes @ 0xE000ED88) -- CPU_WriteMem(4 bytes @ 0xE000ED88) -- CPU_ReadMem(4 bytes @ 0xE000ED88) -- CPU_WriteMem(4 bytes @ 0xE000ED88) -- CPU_ReadMem(4 bytes @ 0xE00FF010)TPIU fitted. -- CPU_ReadMem(4 bytes @ 0xE00FF014)ETM fitted. -- CPU_ReadMem(4 bytes @ 0xE00FF018) >0x0D TIF> >0x21 TIF>  returns 0x2BA01477 (0029ms, 0577ms total)
T20E0 000:629 JLINK_GetDLLVersion()  returns 49200 (0000ms, 0577ms total)
T20E0 000:629 JLINK_CORE_GetFound()  returns 0xE0000FF (0000ms, 0577ms total)
T20E0 000:631 JLINK_GetDebugInfo(0x100) -- Value=0xE00FF003  returns 0x00 (0000ms, 0577ms total)
T20E0 000:631 JLINK_GetDebugInfo(0x101)  returns 0xFFFFFFFF (0000ms, 0577ms total)
T20E0 000:631 JLINK_ReadMem (0xE0041FF0, 0x0010 Bytes, ...) -- CPU is running -- CPU_ReadMem(16 bytes @ 0xE0041FF0) - Data: 0D 00 00 00 90 00 00 00 05 00 00 00 B1 00 00 00  returns 0x00 (0002ms, 0579ms total)
T20E0 000:633 JLINK_GetDebugInfo(0x102)  returns 0xFFFFFFFF (0000ms, 0579ms total)
T20E0 000:633 JLINK_GetDebugInfo(0x103)  returns 0xFFFFFFFF (0000ms, 0579ms total)
T20E0 000:633 JLINK_ReadMem (0xE0040FF0, 0x0010 Bytes, ...) -- CPU is running -- CPU_ReadMem(16 bytes @ 0xE0040FF0) - Data: 0D 00 00 00 90 00 00 00 05 00 00 00 B1 00 00 00  returns 0x00 (0000ms, 0579ms total)
T20E0 000:633 JLINK_GetDebugInfo(0x104)  returns 0xFFFFFFFF (0000ms, 0579ms total)
T20E0 000:633 JLINK_GetDebugInfo(0x105)  returns 0xFFFFFFFF (0000ms, 0579ms total)
T20E0 000:633 JLINK_GetDebugInfo(0x106)  returns 0xFFFFFFFF (0000ms, 0579ms total)
T20E0 000:633 JLINK_GetDebugInfo(0x107)  returns 0xFFFFFFFF (0001ms, 0580ms total)
T20E0 000:634 JLINK_GetDebugInfo(0x10C)  returns 0xFFFFFFFF (0000ms, 0580ms total)
T20E0 000:634 JLINK_ReadMemU32(0xE000EF40, 0x0001 Items, ...) -- CPU is running -- CPU_ReadMem(4 bytes @ 0xE000EF40) - Data: 21 00 11 10  returns 0x01 (0000ms, 0580ms total)
T20E0 000:634 JLINK_ReadMemU32(0xE000EF44, 0x0001 Items, ...) -- CPU is running -- CPU_ReadMem(4 bytes @ 0xE000EF44) - Data: 11 00 00 11  returns 0x01 (0001ms, 0581ms total)
T20E0 000:635 JLINK_ReadMemU32(0xE000ED00, 0x0001 Items, ...) -- CPU is running -- CPU_ReadMem(4 bytes @ 0xE000ED00) - Data: 41 C2 0F 41  returns 0x01 (0000ms, 0581ms total)
T20E0 000:635 JLINK_SetResetType(JLINKARM_RESET_TYPE_NORMAL)  returns JLINKARM_RESET_TYPE_NORMAL (0000ms, 0581ms total)
T20E0 000:635 JLINK_Reset() -- CPU is running -- CPU_WriteMem(4 bytes @ 0xE000EDF0) -- CPU is running -- CPU_WriteMem(4 bytes @ 0xE000EDFC) >0x35 TIF> -- CPU is running -- CPU_WriteMem(4 bytes @ 0xE000ED0C) -- CPU is running -- CPU_ReadMem(4 bytes @ 0xE000EDF0) -- CPU is running -- CPU_ReadMem(4 bytes @ 0xE000EDF0) -- CPU is running -- CPU_WriteMem(4 bytes @ 0xE000EDF0) -- CPU is running -- CPU_WriteMem(4 bytes @ 0xE000EDFC) -- CPU is running -- CPU_ReadMem(4 bytes @ 0xE000EDF0)
 -- CPU_WriteMem(4 bytes @ 0xE0002000) -- CPU_ReadMem(4 bytes @ 0xE000EDFC) -- CPU_ReadMem(4 bytes @ 0xE0001000) (0019ms, 0600ms total)
T20E0 000:654 JLINK_Halt()  returns 0x00 (0000ms, 0600ms total)
T20E0 000:654 JLINK_IsHalted()  returns TRUE (0000ms, 0600ms total)
T20E0 000:654 JLINK_ReadMemU32(0xE000EDF0, 0x0001 Items, ...) -- CPU_ReadMem(4 bytes @ 0xE000EDF0) - Data: 03 00 03 00  returns 0x01 (0000ms, 0600ms total)
T20E0 000:654 JLINK_WriteU32(0xE000EDF0, 0xA05F0003) -- CPU_WriteMem(4 bytes @ 0xE000EDF0)  returns 0x00 (0001ms, 0601ms total)
T20E0 000:655 JLINK_WriteU32(0xE000EDFC, 0x01000000) -- CPU_WriteMem(4 bytes @ 0xE000EDFC)  returns 0x00 (0001ms, 0602ms total)
T20E0 000:667 JLINK_GetHWStatus(...)  returns 0x00 (0002ms, 0604ms total)
T20E0 000:675 JLINK_GetNumBPUnits(Type = 0xFFFFFF00)  returns 0x06 (0000ms, 0604ms total)
T20E0 000:675 JLINK_GetNumBPUnits(Type = 0xF0)  returns 0x2000 (0000ms, 0604ms total)
T20E0 000:675 JLINK_GetNumWPUnits()  returns 0x04 (0000ms, 0604ms total)
T20E0 000:680 JLINK_GetSpeed()  returns 0xFA0 (0000ms, 0604ms total)
T20E0 000:684 JLINK_ReadMemU32(0xE000E004, 0x0001 Items, ...) -- CPU_ReadMem(4 bytes @ 0xE000E004) - Data: 03 00 00 00  returns 0x01 (0001ms, 0605ms total)
T20E0 000:685 JLINK_ReadMemU32(0xE000E004, 0x0001 Items, ...) -- CPU_ReadMem(4 bytes @ 0xE000E004) - Data: 03 00 00 00  returns 0x01 (0000ms, 0605ms total)
T20E0 000:685 JLINK_WriteMem(0xE0001000, 0x001C Bytes, ...) - Data: 01 00 00 00 00 00 00 00 00 00 00 00 00 00 00 00 ... -- CPU_WriteMem(28 bytes @ 0xE0001000)  returns 0x1C (0001ms, 0606ms total)
T20E0 000:686 JLINK_ReadMem (0xE0001000, 0x001C Bytes, ...) -- CPU_ReadMem(28 bytes @ 0xE0001000) - Data: 01 00 00 40 00 00 00 00 00 00 00 00 00 00 00 00 ...  returns 0x00 (0000ms, 0606ms total)
T20E0 000:686 JLINK_Halt()  returns 0x00 (0000ms, 0606ms total)
T20E0 000:686 JLINK_IsHalted()  returns TRUE (0000ms, 0606ms total)
T20E0 000:688 JLINK_WriteMem(0x20000000, 0x0184 Bytes, ...) - Data: 00 BE 0A E0 0D 78 2D 06 68 40 08 24 40 00 00 D3 ... -- CPU_WriteMem(388 bytes @ 0x20000000)  returns 0x184 (0003ms, 0609ms total)
T20E0 000:691 JLINK_WriteReg(R0, 0x08000000)  returns 0x00 (0000ms, 0609ms total)
T20E0 000:691 JLINK_WriteReg(R1, 0x00B71B00)  returns 0x00 (0000ms, 0609ms total)
T20E0 000:691 JLINK_WriteReg(R2, 0x00000001)  returns 0x00 (0000ms, 0609ms total)
T20E0 000:691 JLINK_WriteReg(R3, 0x00000000)  returns 0x00 (0000ms, 0609ms total)
T20E0 000:691 JLINK_WriteReg(R4, 0x00000000)  returns 0x00 (0000ms, 0609ms total)
T20E0 000:691 JLINK_WriteReg(R5, 0x00000000)  returns 0x00 (0000ms, 0609ms total)
T20E0 000:691 JLINK_WriteReg(R6, 0x00000000)  returns 0x00 (0000ms, 0609ms total)
T20E0 000:691 JLINK_WriteReg(R7, 0x00000000)  returns 0x00 (0000ms, 0609ms total)
T20E0 000:691 JLINK_WriteReg(R8, 0x00000000)  returns 0x00 (0000ms, 0609ms total)
T20E0 000:691 JLINK_WriteReg(R9, 0x20000180)  returns 0x00 (0000ms, 0609ms total)
T20E0 000:691 JLINK_WriteReg(R10, 0x00000000)  returns 0x00 (0000ms, 0609ms total)
T20E0 000:691 JLINK_WriteReg(R11, 0x00000000)  returns 0x00 (0000ms, 0609ms total)
T20E0 000:691 JLINK_WriteReg(R12, 0x00000000)  returns 0x00 (0000ms, 0609ms total)
T20E0 000:691 JLINK_WriteReg(R13 (SP), 0x20001000)  returns 0x00 (0000ms, 0609ms total)
T20E0 000:692 JLINK_WriteReg(R14, 0x20000001)  returns 0x00 (0000ms, 0609ms total)
T20E0 000:692 JLINK_WriteReg(R15 (PC), 0x20000054)  returns 0x00 (0000ms, 0609ms total)
T20E0 000:692 JLINK_WriteReg(XPSR, 0x01000000)  returns 0x00 (0000ms, 0609ms total)
T20E0 000:692 JLINK_WriteReg(MSP, 0x20001000)  returns 0x00 (0000ms, 0609ms total)
T20E0 000:692 JLINK_WriteReg(PSP, 0x20001000)  returns 0x00 (0000ms, 0609ms total)
T20E0 000:692 JLINK_WriteReg(CFBP, 0x00000000)  returns 0x00 (0000ms, 0609ms total)
T20E0 000:692 JLINK_SetBPEx(Addr = 0x20000000, Type = 0xFFFFFFF2) -- CPU_ReadMem(2 bytes @ 0x20000000)  returns 0x00000001 (0000ms, 0609ms total)
T20E0 000:692 JLINK_Go() -- CPU_WriteMem(2 bytes @ 0x20000000) -- CPU_WriteMem(4 bytes @ 0xE0002008) -- CPU_WriteMem(4 bytes @ 0xE000200C) -- CPU_WriteMem(4 bytes @ 0xE0002010) -- CPU_WriteMem(4 bytes @ 0xE0002014) -- CPU_WriteMem(4 bytes @ 0xE0002018) -- CPU_WriteMem(4 bytes @ 0xE000201C) -- CPU_WriteMem(4 bytes @ 0xE0001004) (0005ms, 0614ms total)
T20E0 000:697 JLINK_IsHalted() -- CPU_ReadMem(2 bytes @ 0x20000000)  returns TRUE (0004ms, 0618ms total)
T20E0 000:701 JLINK_ReadReg(R15 (PC))  returns 0x20000000 (0000ms, 0614ms total)
T20E0 000:701 JLINK_ClrBPEx(BPHandle = 0x00000001)  returns 0x00 (0000ms, 0614ms total)
T20E0 000:701 JLINK_ReadReg(R0)  returns 0x00000000 (0000ms, 0614ms total)
T20E0 000:702 JLINK_WriteReg(R0, 0x08000000)  returns 0x00 (0000ms, 0614ms total)
T20E0 000:702 JLINK_WriteReg(R1, 0x00004000)  returns 0x00 (0000ms, 0614ms total)
T20E0 000:702 JLINK_WriteReg(R2, 0x000000FF)  returns 0x00 (0000ms, 0614ms total)
T20E0 000:702 JLINK_WriteReg(R3, 0x00000000)  returns 0x00 (0000ms, 0614ms total)
T20E0 000:702 JLINK_WriteReg(R4, 0x00000000)  returns 0x00 (0000ms, 0614ms total)
T20E0 000:702 JLINK_WriteReg(R5, 0x00000000)  returns 0x00 (0000ms, 0614ms total)
T20E0 000:702 JLINK_WriteReg(R6, 0x00000000)  returns 0x00 (0000ms, 0614ms total)
T20E0 000:702 JLINK_WriteReg(R7, 0x00000000)  returns 0x00 (0000ms, 0614ms total)
T20E0 000:702 JLINK_WriteReg(R8, 0x00000000)  returns 0x00 (0000ms, 0614ms total)
T20E0 000:702 JLINK_WriteReg(R9, 0x20000180)  returns 0x00 (0000ms, 0614ms total)
T20E0 000:702 JLINK_WriteReg(R10, 0x00000000)  returns 0x00 (0000ms, 0614ms total)
T20E0 000:702 JLINK_WriteReg(R11, 0x00000000)  returns 0x00 (0000ms, 0614ms total)
T20E0 000:702 JLINK_WriteReg(R12, 0x00000000)  returns 0x00 (0000ms, 0614ms total)
T20E0 000:702 JLINK_WriteReg(R13 (SP), 0x20001000)  returns 0x00 (0000ms, 0614ms total)
T20E0 000:702 JLINK_WriteReg(R14, 0x20000001)  returns 0x00 (0000ms, 0614ms total)
T20E0 000:702 JLINK_WriteReg(R15 (PC), 0x20000020)  returns 0x00 (0000ms, 0614ms total)
T20E0 000:702 JLINK_WriteReg(XPSR, 0x01000000)  returns 0x00 (0000ms, 0614ms total)
T20E0 000:702 JLINK_WriteReg(MSP, 0x20001000)  returns 0x00 (0001ms, 0615ms total)
T20E0 000:703 JLINK_WriteReg(PSP, 0x20001000)  returns 0x00 (0000ms, 0615ms total)
T20E0 000:703 JLINK_WriteReg(CFBP, 0x00000000)  returns 0x00 (0000ms, 0615ms total)
T20E0 000:703 JLINK_SetBPEx(Addr = 0x20000000, Type = 0xFFFFFFF2)  returns 0x00000002 (0000ms, 0615ms total)
T20E0 000:703 JLINK_Go() (0002ms, 0617ms total)
T20E0 000:705 JLINK_IsHalted() -- CPU_ReadMem(2 bytes @ 0x20000000)  returns TRUE (0002ms, 0619ms total)
T20E0 000:707 JLINK_ReadReg(R15 (PC))  returns 0x20000000 (0000ms, 0617ms total)
T20E0 000:707 JLINK_ClrBPEx(BPHandle = 0x00000002)  returns 0x00 (0000ms, 0617ms total)
T20E0 000:707 JLINK_ReadReg(R0)  returns 0x00000001 (0000ms, 0617ms total)
T20E0 000:707 JLINK_WriteReg(R0, 0x08000000)  returns 0x00 (0000ms, 0617ms total)
T20E0 000:707 JLINK_WriteReg(R1, 0x00004000)  returns 0x00 (0000ms, 0617ms total)
T20E0 000:707 JLINK_WriteReg(R2, 0x000000FF)  returns 0x00 (0000ms, 0617ms total)
T20E0 000:707 JLINK_WriteReg(R3, 0x00000000)  returns 0x00 (0000ms, 0617ms total)
T20E0 000:707 JLINK_WriteReg(R4, 0x00000000)  returns 0x00 (0000ms, 0617ms total)
T20E0 000:707 JLINK_WriteReg(R5, 0x00000000)  returns 0x00 (0000ms, 0617ms total)
T20E0 000:707 JLINK_WriteReg(R6, 0x00000000)  returns 0x00 (0000ms, 0617ms total)
T20E0 000:707 JLINK_WriteReg(R7, 0x00000000)  returns 0x00 (0000ms, 0617ms total)
T20E0 000:709 JLINK_WriteReg(R8, 0x00000000)  returns 0x00 (0000ms, 0619ms total)
T20E0 000:709 JLINK_WriteReg(R9, 0x20000180)  returns 0x00 (0000ms, 0619ms total)
T20E0 000:709 JLINK_WriteReg(R10, 0x00000000)  returns 0x00 (0000ms, 0619ms total)
T20E0 000:709 JLINK_WriteReg(R11, 0x00000000)  returns 0x00 (0000ms, 0619ms total)
T20E0 000:709 JLINK_WriteReg(R12, 0x00000000)  returns 0x00 (0000ms, 0619ms total)
T20E0 000:709 JLINK_WriteReg(R13 (SP), 0x20001000)  returns 0x00 (0000ms, 0619ms total)
T20E0 000:709 JLINK_WriteReg(R14, 0x20000001)  returns 0x00 (0000ms, 0619ms total)
T20E0 000:709 JLINK_WriteReg(R15 (PC), 0x200000C0)  returns 0x00 (0000ms, 0619ms total)
T20E0 000:709 JLINK_WriteReg(XPSR, 0x01000000)  returns 0x00 (0000ms, 0619ms total)
T20E0 000:709 JLINK_WriteReg(MSP, 0x20001000)  returns 0x00 (0000ms, 0619ms total)
T20E0 000:709 JLINK_WriteReg(PSP, 0x20001000)  returns 0x00 (0000ms, 0619ms total)
T20E0 000:709 JLINK_WriteReg(CFBP, 0x00000000)  returns 0x00 (0000ms, 0619ms total)
T20E0 000:709 JLINK_SetBPEx(Addr = 0x20000000, Type = 0xFFFFFFF2)  returns 0x00000003 (0001ms, 0620ms total)
T20E0 000:710 JLINK_Go() (0002ms, 0622ms total)
T20E0 000:712 JLINK_IsHalted()  returns FALSE (0000ms, 0622ms total)
T20E0 000:755 JLINK_IsHalted()  returns FALSE (0000ms, 0622ms total)
T20E0 000:757 JLINK_IsHalted()  returns FALSE (0000ms, 0622ms total)
T20E0 000:759 JLINK_IsHalted()  returns FALSE (0000ms, 0622ms total)
T20E0 000:761 JLINK_IsHalted()  returns FALSE (0000ms, 0622ms total)
T20E0 000:763 JLINK_IsHalted()  returns FALSE (0000ms, 0622ms total)
T20E0 000:765 JLINK_IsHalted()  returns FALSE (0000ms, 0622ms total)
T20E0 000:768 JLINK_IsHalted()  returns FALSE (0000ms, 0622ms total)
T20E0 000:770 JLINK_IsHalted()  returns FALSE (0000ms, 0622ms total)
T20E0 000:772 JLINK_IsHalted() -- CPU_ReadMem(2 bytes @ 0x20000000)  returns TRUE (0002ms, 0624ms total)
T20E0 000:774 JLINK_ReadReg(R15 (PC))  returns 0x20000000 (0000ms, 0622ms total)
T20E0 000:774 JLINK_ClrBPEx(BPHandle = 0x00000003)  returns 0x00 (0000ms, 0622ms total)
T20E0 000:774 JLINK_ReadReg(R0)  returns 0x00000000 (0000ms, 0622ms total)
T20E0 000:775 JLINK_WriteReg(R0, 0x08004000)  returns 0x00 (0000ms, 0622ms total)
T20E0 000:775 JLINK_WriteReg(R1, 0x00004000)  returns 0x00 (0000ms, 0622ms total)
T20E0 000:775 JLINK_WriteReg(R2, 0x000000FF)  returns 0x00 (0000ms, 0622ms total)
T20E0 000:775 JLINK_WriteReg(R3, 0x00000000)  returns 0x00 (0000ms, 0622ms total)
T20E0 000:775 JLINK_WriteReg(R4, 0x00000000)  returns 0x00 (0000ms, 0622ms total)
T20E0 000:775 JLINK_WriteReg(R5, 0x00000000)  returns 0x00 (0000ms, 0622ms total)
T20E0 000:775 JLINK_WriteReg(R6, 0x00000000)  returns 0x00 (0000ms, 0622ms total)
T20E0 000:775 JLINK_WriteReg(R7, 0x00000000)  returns 0x00 (0000ms, 0622ms total)
T20E0 000:775 JLINK_WriteReg(R8, 0x00000000)  returns 0x00 (0000ms, 0622ms total)
T20E0 000:775 JLINK_WriteReg(R9, 0x20000180)  returns 0x00 (0000ms, 0622ms total)
T20E0 000:775 JLINK_WriteReg(R10, 0x00000000)  returns 0x00 (0000ms, 0622ms total)
T20E0 000:775 JLINK_WriteReg(R11, 0x00000000)  returns 0x00 (0000ms, 0622ms total)
T20E0 000:775 JLINK_WriteReg(R12, 0x00000000)  returns 0x00 (0001ms, 0623ms total)
T20E0 000:776 JLINK_WriteReg(R13 (SP), 0x20001000)  returns 0x00 (0000ms, 0623ms total)
T20E0 000:776 JLINK_WriteReg(R14, 0x20000001)  returns 0x00 (0000ms, 0623ms total)
T20E0 000:776 JLINK_WriteReg(R15 (PC), 0x20000020)  returns 0x00 (0000ms, 0623ms total)
T20E0 000:776 JLINK_WriteReg(XPSR, 0x01000000)  returns 0x00 (0000ms, 0623ms total)
T20E0 000:776 JLINK_WriteReg(MSP, 0x20001000)  returns 0x00 (0000ms, 0623ms total)
T20E0 000:776 JLINK_WriteReg(PSP, 0x20001000)  returns 0x00 (0000ms, 0623ms total)
T20E0 000:776 JLINK_WriteReg(CFBP, 0x00000000)  returns 0x00 (0000ms, 0623ms total)
T20E0 000:776 JLINK_SetBPEx(Addr = 0x20000000, Type = 0xFFFFFFF2)  returns 0x00000004 (0000ms, 0623ms total)
T20E0 000:776 JLINK_Go() (0002ms, 0625ms total)
T20E0 000:778 JLINK_IsHalted() -- CPU_ReadMem(2 bytes @ 0x20000000)  returns TRUE (0003ms, 0628ms total)
T20E0 000:781 JLINK_ReadReg(R15 (PC))  returns 0x20000000 (0000ms, 0625ms total)
T20E0 000:781 JLINK_ClrBPEx(BPHandle = 0x00000004)  returns 0x00 (0000ms, 0625ms total)
T20E0 000:781 JLINK_ReadReg(R0)  returns 0x00000001 (0000ms, 0625ms total)
T20E0 000:781 JLINK_WriteReg(R0, 0x08004000)  returns 0x00 (0000ms, 0625ms total)
T20E0 000:781 JLINK_WriteReg(R1, 0x00004000)  returns 0x00 (0000ms, 0625ms total)
T20E0 000:781 JLINK_WriteReg(R2, 0x000000FF)  returns 0x00 (0000ms, 0625ms total)
T20E0 000:781 JLINK_WriteReg(R3, 0x00000000)  returns 0x00 (0000ms, 0625ms total)
T20E0 000:781 JLINK_WriteReg(R4, 0x00000000)  returns 0x00 (0000ms, 0625ms total)
T20E0 000:781 JLINK_WriteReg(R5, 0x00000000)  returns 0x00 (0000ms, 0625ms total)
T20E0 000:781 JLINK_WriteReg(R6, 0x00000000)  returns 0x00 (0000ms, 0625ms total)
T20E0 000:781 JLINK_WriteReg(R7, 0x00000000)  returns 0x00 (0001ms, 0626ms total)
T20E0 000:782 JLINK_WriteReg(R8, 0x00000000)  returns 0x00 (0000ms, 0626ms total)
T20E0 000:782 JLINK_WriteReg(R9, 0x20000180)  returns 0x00 (0000ms, 0626ms total)
T20E0 000:782 JLINK_WriteReg(R10, 0x00000000)  returns 0x00 (0000ms, 0626ms total)
T20E0 000:782 JLINK_WriteReg(R11, 0x00000000)  returns 0x00 (0000ms, 0626ms total)
T20E0 000:782 JLINK_WriteReg(R12, 0x00000000)  returns 0x00 (0000ms, 0626ms total)
T20E0 000:782 JLINK_WriteReg(R13 (SP), 0x20001000)  returns 0x00 (0000ms, 0626ms total)
T20E0 000:782 JLINK_WriteReg(R14, 0x20000001)  returns 0x00 (0000ms, 0626ms total)
T20E0 000:782 JLINK_WriteReg(R15 (PC), 0x200000C0)  returns 0x00 (0000ms, 0626ms total)
T20E0 000:782 JLINK_WriteReg(XPSR, 0x01000000)  returns 0x00 (0000ms, 0626ms total)
T20E0 000:782 JLINK_WriteReg(MSP, 0x20001000)  returns 0x00 (0000ms, 0626ms total)
T20E0 000:782 JLINK_WriteReg(PSP, 0x20001000)  returns 0x00 (0000ms, 0626ms total)
T20E0 000:782 JLINK_WriteReg(CFBP, 0x00000000)  returns 0x00 (0000ms, 0626ms total)
T20E0 000:782 JLINK_SetBPEx(Addr = 0x20000000, Type = 0xFFFFFFF2)  returns 0x00000005 (0000ms, 0626ms total)
T20E0 000:782 JLINK_Go() (0002ms, 0628ms total)
T20E0 000:784 JLINK_IsHalted()  returns FALSE (0000ms, 0628ms total)
T20E0 000:786 JLINK_IsHalted()  returns FALSE (0000ms, 0628ms total)
T20E0 000:787 JLINK_IsHalted()  returns FALSE (0001ms, 0629ms total)
T20E0 000:789 JLINK_IsHalted()  returns FALSE (0000ms, 0628ms total)
T20E0 000:791 JLINK_IsHalted()  returns FALSE (0000ms, 0628ms total)
T20E0 000:793 JLINK_IsHalted()  returns FALSE (0000ms, 0628ms total)
T20E0 000:794 JLINK_IsHalted()  returns FALSE (0001ms, 0629ms total)
T20E0 000:796 JLINK_IsHalted()  returns FALSE (0000ms, 0628ms total)
T20E0 000:798 JLINK_IsHalted()  returns FALSE (0000ms, 0628ms total)
T20E0 000:800 JLINK_IsHalted()  returns FALSE (0000ms, 0628ms total)
T20E0 000:802 JLINK_IsHalted()  returns FALSE (0000ms, 0628ms total)
T20E0 000:804 JLINK_IsHalted()  returns FALSE (0000ms, 0628ms total)
T20E0 000:806 JLINK_IsHalted()  returns FALSE (0000ms, 0628ms total)
T20E0 000:809 JLINK_IsHalted()  returns FALSE (0000ms, 0628ms total)
T20E0 000:811 JLINK_IsHalted()  returns FALSE (0000ms, 0628ms total)
T20E0 000:814 JLINK_IsHalted()  returns FALSE (0000ms, 0628ms total)
T20E0 000:815 JLINK_IsHalted()  returns FALSE (0001ms, 0629ms total)
T20E0 000:817 JLINK_IsHalted()  returns FALSE (0001ms, 0629ms total)
T20E0 000:820 JLINK_IsHalted()  returns FALSE (0000ms, 0628ms total)
T20E0 000:822 JLINK_IsHalted()  returns FALSE (0001ms, 0629ms total)
T20E0 000:825 JLINK_IsHalted()  returns FALSE (0000ms, 0628ms total)
T20E0 000:828 JLINK_IsHalted()  returns FALSE (0000ms, 0628ms total)
T20E0 000:830 JLINK_IsHalted()  returns FALSE (0000ms, 0628ms total)
T20E0 000:832 JLINK_IsHalted()  returns FALSE (0001ms, 0629ms total)
T20E0 000:835 JLINK_IsHalted()  returns FALSE (0000ms, 0628ms total)
T20E0 000:842 JLINK_IsHalted()  returns FALSE (0000ms, 0628ms total)
T20E0 000:844 JLINK_IsHalted() -- CPU_ReadMem(2 bytes @ 0x20000000)  returns TRUE (0003ms, 0631ms total)
T20E0 000:847 JLINK_ReadReg(R15 (PC))  returns 0x20000000 (0000ms, 0628ms total)
T20E0 000:847 JLINK_ClrBPEx(BPHandle = 0x00000005)  returns 0x00 (0000ms, 0628ms total)
T20E0 000:847 JLINK_ReadReg(R0)  returns 0x00000000 (0000ms, 0628ms total)
T20E0 000:849 JLINK_WriteReg(R0, 0x00000001)  returns 0x00 (0000ms, 0628ms total)
T20E0 000:849 JLINK_WriteReg(R1, 0x00004000)  returns 0x00 (0000ms, 0628ms total)
T20E0 000:849 JLINK_WriteReg(R2, 0x000000FF)  returns 0x00 (0000ms, 0628ms total)
T20E0 000:849 JLINK_WriteReg(R3, 0x00000000)  returns 0x00 (0000ms, 0628ms total)
T20E0 000:850 JLINK_WriteReg(R4, 0x00000000)  returns 0x00 (0000ms, 0629ms total)
T20E0 000:850 JLINK_WriteReg(R5, 0x00000000)  returns 0x00 (0000ms, 0629ms total)
T20E0 000:850 JLINK_WriteReg(R6, 0x00000000)  returns 0x00 (0000ms, 0629ms total)
T20E0 000:850 JLINK_WriteReg(R7, 0x00000000)  returns 0x00 (0000ms, 0629ms total)
T20E0 000:850 JLINK_WriteReg(R8, 0x00000000)  returns 0x00 (0000ms, 0629ms total)
T20E0 000:850 JLINK_WriteReg(R9, 0x20000180)  returns 0x00 (0000ms, 0629ms total)
T20E0 000:850 JLINK_WriteReg(R10, 0x00000000)  returns 0x00 (0000ms, 0629ms total)
T20E0 000:850 JLINK_WriteReg(R11, 0x00000000)  returns 0x00 (0000ms, 0629ms total)
T20E0 000:850 JLINK_WriteReg(R12, 0x00000000)  returns 0x00 (0000ms, 0629ms total)
T20E0 000:851 JLINK_WriteReg(R13 (SP), 0x20001000)  returns 0x00 (0000ms, 0630ms total)
T20E0 000:851 JLINK_WriteReg(R14, 0x20000001)  returns 0x00 (0000ms, 0630ms total)
T20E0 000:851 JLINK_WriteReg(R15 (PC), 0x20000086)  returns 0x00 (0000ms, 0630ms total)
T20E0 000:851 JLINK_WriteReg(XPSR, 0x01000000)  returns 0x00 (0000ms, 0630ms total)
T20E0 000:851 JLINK_WriteReg(MSP, 0x20001000)  returns 0x00 (0000ms, 0630ms total)
T20E0 000:851 JLINK_WriteReg(PSP, 0x20001000)  returns 0x00 (0000ms, 0630ms total)
T20E0 000:851 JLINK_WriteReg(CFBP, 0x00000000)  returns 0x00 (0000ms, 0630ms total)
T20E0 000:851 JLINK_SetBPEx(Addr = 0x20000000, Type = 0xFFFFFFF2)  returns 0x00000006 (0000ms, 0630ms total)
T20E0 000:851 JLINK_Go() (0003ms, 0633ms total)
T20E0 000:854 JLINK_IsHalted() -- CPU_ReadMem(2 bytes @ 0x20000000)  returns TRUE (0004ms, 0637ms total)
T20E0 000:858 JLINK_ReadReg(R15 (PC))  returns 0x20000000 (0000ms, 0633ms total)
T20E0 000:858 JLINK_ClrBPEx(BPHandle = 0x00000006)  returns 0x00 (0000ms, 0633ms total)
T20E0 000:858 JLINK_ReadReg(R0)  returns 0x00000000 (0000ms, 0633ms total)
T20E0 000:919 JLINK_WriteMem(0x20000000, 0x0184 Bytes, ...) - Data: 00 BE 0A E0 0D 78 2D 06 68 40 08 24 40 00 00 D3 ... -- CPU_WriteMem(388 bytes @ 0x20000000)  returns 0x184 (0002ms, 0635ms total)
T20E0 000:921 JLINK_WriteReg(R0, 0x08000000)  returns 0x00 (0000ms, 0635ms total)
T20E0 000:921 JLINK_WriteReg(R1, 0x00B71B00)  returns 0x00 (0000ms, 0635ms total)
T20E0 000:921 JLINK_WriteReg(R2, 0x00000002)  returns 0x00 (0000ms, 0635ms total)
T20E0 000:921 JLINK_WriteReg(R3, 0x00000000)  returns 0x00 (0001ms, 0636ms total)
T20E0 000:922 JLINK_WriteReg(R4, 0x00000000)  returns 0x00 (0000ms, 0636ms total)
T20E0 000:922 JLINK_WriteReg(R5, 0x00000000)  returns 0x00 (0000ms, 0636ms total)
T20E0 000:922 JLINK_WriteReg(R6, 0x00000000)  returns 0x00 (0000ms, 0636ms total)
T20E0 000:922 JLINK_WriteReg(R7, 0x00000000)  returns 0x00 (0000ms, 0636ms total)
T20E0 000:922 JLINK_WriteReg(R8, 0x00000000)  returns 0x00 (0000ms, 0636ms total)
T20E0 000:922 JLINK_WriteReg(R9, 0x20000180)  returns 0x00 (0000ms, 0636ms total)
T20E0 000:922 JLINK_WriteReg(R10, 0x00000000)  returns 0x00 (0000ms, 0636ms total)
T20E0 000:922 JLINK_WriteReg(R11, 0x00000000)  returns 0x00 (0000ms, 0636ms total)
T20E0 000:922 JLINK_WriteReg(R12, 0x00000000)  returns 0x00 (0000ms, 0636ms total)
T20E0 000:922 JLINK_WriteReg(R13 (SP), 0x20001000)  returns 0x00 (0000ms, 0636ms total)
T20E0 000:922 JLINK_WriteReg(R14, 0x20000001)  returns 0x00 (0000ms, 0636ms total)
T20E0 000:922 JLINK_WriteReg(R15 (PC), 0x20000054)  returns 0x00 (0000ms, 0636ms total)
T20E0 000:922 JLINK_WriteReg(XPSR, 0x01000000)  returns 0x00 (0000ms, 0636ms total)
T20E0 000:922 JLINK_WriteReg(MSP, 0x20001000)  returns 0x00 (0000ms, 0636ms total)
T20E0 000:922 JLINK_WriteReg(PSP, 0x20001000)  returns 0x00 (0001ms, 0637ms total)
T20E0 000:923 JLINK_WriteReg(CFBP, 0x00000000)  returns 0x00 (0000ms, 0637ms total)
T20E0 000:923 JLINK_SetBPEx(Addr = 0x20000000, Type = 0xFFFFFFF2) -- CPU_ReadMem(2 bytes @ 0x20000000)  returns 0x00000007 (0000ms, 0637ms total)
T20E0 000:923 JLINK_Go() -- CPU_WriteMem(2 bytes @ 0x20000000) (0002ms, 0639ms total)
T20E0 000:925 JLINK_IsHalted() -- CPU_ReadMem(2 bytes @ 0x20000000)  returns TRUE (0003ms, 0642ms total)
T20E0 000:928 JLINK_ReadReg(R15 (PC))  returns 0x20000000 (0000ms, 0639ms total)
T20E0 000:928 JLINK_ClrBPEx(BPHandle = 0x00000007)  returns 0x00 (0000ms, 0639ms total)
T20E0 000:928 JLINK_ReadReg(R0)  returns 0x00000000 (0001ms, 0640ms total)
T20E0 000:929 JLINK_WriteMem(0x20000184, 0x0400 Bytes, ...) - Data: 18 07 00 20 9D 01 00 08 2F 2E 00 08 C9 28 00 08 ... -- CPU_WriteMem(1024 bytes @ 0x20000184)  returns 0x400 (0006ms, 0646ms total)
T20E0 000:935 JLINK_WriteReg(R0, 0x08000000)  returns 0x00 (0000ms, 0646ms total)
T20E0 000:935 JLINK_WriteReg(R1, 0x00000400)  returns 0x00 (0000ms, 0646ms total)
T20E0 000:935 JLINK_WriteReg(R2, 0x20000184)  returns 0x00 (0000ms, 0646ms total)
T20E0 000:935 JLINK_WriteReg(R3, 0x00000000)  returns 0x00 (0000ms, 0646ms total)
T20E0 000:936 JLINK_WriteReg(R4, 0x00000000)  returns 0x00 (0000ms, 0647ms total)
T20E0 000:936 JLINK_WriteReg(R5, 0x00000000)  returns 0x00 (0000ms, 0647ms total)
T20E0 000:936 JLINK_WriteReg(R6, 0x00000000)  returns 0x00 (0000ms, 0647ms total)
T20E0 000:936 JLINK_WriteReg(R7, 0x00000000)  returns 0x00 (0000ms, 0647ms total)
T20E0 000:936 JLINK_WriteReg(R8, 0x00000000)  returns 0x00 (0000ms, 0647ms total)
T20E0 000:936 JLINK_WriteReg(R9, 0x20000180)  returns 0x00 (0000ms, 0647ms total)
T20E0 000:936 JLINK_WriteReg(R10, 0x00000000)  returns 0x00 (0000ms, 0647ms total)
T20E0 000:936 JLINK_WriteReg(R11, 0x00000000)  returns 0x00 (0000ms, 0647ms total)
T20E0 000:936 JLINK_WriteReg(R12, 0x00000000)  returns 0x00 (0000ms, 0647ms total)
T20E0 000:936 JLINK_WriteReg(R13 (SP), 0x20001000)  returns 0x00 (0000ms, 0647ms total)
T20E0 000:936 JLINK_WriteReg(R14, 0x20000001)  returns 0x00 (0000ms, 0647ms total)
T20E0 000:936 JLINK_WriteReg(R15 (PC), 0x2000010C)  returns 0x00 (0000ms, 0647ms total)
T20E0 000:936 JLINK_WriteReg(XPSR, 0x01000000)  returns 0x00 (0000ms, 0647ms total)
T20E0 000:936 JLINK_WriteReg(MSP, 0x20001000)  returns 0x00 (0000ms, 0647ms total)
T20E0 000:936 JLINK_WriteReg(PSP, 0x20001000)  returns 0x00 (0000ms, 0647ms total)
T20E0 000:936 JLINK_WriteReg(CFBP, 0x00000000)  returns 0x00 (0000ms, 0647ms total)
T20E0 000:936 JLINK_SetBPEx(Addr = 0x20000000, Type = 0xFFFFFFF2)  returns 0x00000008 (0000ms, 0647ms total)
T20E0 000:936 JLINK_Go() (0002ms, 0649ms total)
T20E0 000:938 JLINK_IsHalted()  returns FALSE (0001ms, 0650ms total)
T20E0 000:947 JLINK_IsHalted()  returns FALSE (0001ms, 0650ms total)
T20E0 000:950 JLINK_IsHalted()  returns FALSE (0001ms, 0650ms total)
T20E0 000:952 JLINK_IsHalted() -- CPU_ReadMem(2 bytes @ 0x20000000)  returns TRUE (0003ms, 0652ms total)
T20E0 000:955 JLINK_ReadReg(R15 (PC))  returns 0x20000000 (0000ms, 0649ms total)
T20E0 000:955 JLINK_ClrBPEx(BPHandle = 0x00000008)  returns 0x00 (0000ms, 0649ms total)
T20E0 000:955 JLINK_ReadReg(R0)  returns 0x00000000 (0000ms, 0649ms total)
T20E0 000:956 JLINK_WriteMem(0x20000184, 0x0400 Bytes, ...) - Data: 80 13 01 FB 02 44 00 FB 03 4E 84 0A 97 0A 44 EA ... -- CPU_WriteMem(1024 bytes @ 0x20000184)  returns 0x400 (0006ms, 0655ms total)
T20E0 000:962 JLINK_WriteReg(R0, 0x08000400)  returns 0x00 (0000ms, 0655ms total)
T20E0 000:962 JLINK_WriteReg(R1, 0x00000400)  returns 0x00 (0000ms, 0655ms total)
T20E0 000:962 JLINK_WriteReg(R2, 0x20000184)  returns 0x00 (0000ms, 0655ms total)
T20E0 000:962 JLINK_WriteReg(R3, 0x00000000)  returns 0x00 (0000ms, 0655ms total)
T20E0 000:962 JLINK_WriteReg(R4, 0x00000000)  returns 0x00 (0000ms, 0655ms total)
T20E0 000:962 JLINK_WriteReg(R5, 0x00000000)  returns 0x00 (0000ms, 0655ms total)
T20E0 000:962 JLINK_WriteReg(R6, 0x00000000)  returns 0x00 (0000ms, 0655ms total)
T20E0 000:962 JLINK_WriteReg(R7, 0x00000000)  returns 0x00 (0000ms, 0655ms total)
T20E0 000:962 JLINK_WriteReg(R8, 0x00000000)  returns 0x00 (0000ms, 0655ms total)
T20E0 000:962 JLINK_WriteReg(R9, 0x20000180)  returns 0x00 (0000ms, 0655ms total)
T20E0 000:962 JLINK_WriteReg(R10, 0x00000000)  returns 0x00 (0001ms, 0656ms total)
T20E0 000:963 JLINK_WriteReg(R11, 0x00000000)  returns 0x00 (0000ms, 0656ms total)
T20E0 000:963 JLINK_WriteReg(R12, 0x00000000)  returns 0x00 (0000ms, 0656ms total)
T20E0 000:963 JLINK_WriteReg(R13 (SP), 0x20001000)  returns 0x00 (0000ms, 0656ms total)
T20E0 000:963 JLINK_WriteReg(R14, 0x20000001)  returns 0x00 (0000ms, 0656ms total)
T20E0 000:963 JLINK_WriteReg(R15 (PC), 0x2000010C)  returns 0x00 (0000ms, 0656ms total)
T20E0 000:963 JLINK_WriteReg(XPSR, 0x01000000)  returns 0x00 (0000ms, 0656ms total)
T20E0 000:963 JLINK_WriteReg(MSP, 0x20001000)  returns 0x00 (0000ms, 0656ms total)
T20E0 000:963 JLINK_WriteReg(PSP, 0x20001000)  returns 0x00 (0000ms, 0656ms total)
T20E0 000:963 JLINK_WriteReg(CFBP, 0x00000000)  returns 0x00 (0000ms, 0656ms total)
T20E0 000:963 JLINK_SetBPEx(Addr = 0x20000000, Type = 0xFFFFFFF2)  returns 0x00000009 (0000ms, 0656ms total)
T20E0 000:963 JLINK_Go() (0001ms, 0657ms total)
T20E0 000:964 JLINK_IsHalted()  returns FALSE (0001ms, 0658ms total)
T20E0 000:968 JLINK_IsHalted()  returns FALSE (0000ms, 0657ms total)
T20E0 000:970 JLINK_IsHalted()  returns FALSE (0000ms, 0657ms total)
T20E0 000:972 JLINK_IsHalted()  returns FALSE (0000ms, 0657ms total)
T20E0 000:974 JLINK_IsHalted()  returns FALSE (0001ms, 0658ms total)
T20E0 000:978 JLINK_IsHalted() -- CPU_ReadMem(2 bytes @ 0x20000000)  returns TRUE (0003ms, 0660ms total)
T20E0 000:981 JLINK_ReadReg(R15 (PC))  returns 0x20000000 (0000ms, 0657ms total)
T20E0 000:981 JLINK_ClrBPEx(BPHandle = 0x00000009)  returns 0x00 (0000ms, 0657ms total)
T20E0 000:982 JLINK_ReadReg(R0)  returns 0x00000000 (0000ms, 0658ms total)
T20E0 000:983 JLINK_WriteMem(0x20000184, 0x0400 Bytes, ...) - Data: 00 22 13 46 1B EB 07 00 46 EB 0A 51 BD E8 F0 4D ... -- CPU_WriteMem(1024 bytes @ 0x20000184)  returns 0x400 (0005ms, 0663ms total)
T20E0 000:988 JLINK_WriteReg(R0, 0x08000800)  returns 0x00 (0001ms, 0664ms total)
T20E0 000:989 JLINK_WriteReg(R1, 0x00000400)  returns 0x00 (0000ms, 0664ms total)
T20E0 000:989 JLINK_WriteReg(R2, 0x20000184)  returns 0x00 (0000ms, 0664ms total)
T20E0 000:989 JLINK_WriteReg(R3, 0x00000000)  returns 0x00 (0000ms, 0664ms total)
T20E0 000:989 JLINK_WriteReg(R4, 0x00000000)  returns 0x00 (0000ms, 0664ms total)
T20E0 000:989 JLINK_WriteReg(R5, 0x00000000)  returns 0x00 (0000ms, 0664ms total)
T20E0 000:989 JLINK_WriteReg(R6, 0x00000000)  returns 0x00 (0001ms, 0665ms total)
T20E0 000:990 JLINK_WriteReg(R7, 0x00000000)  returns 0x00 (0000ms, 0665ms total)
T20E0 000:990 JLINK_WriteReg(R8, 0x00000000)  returns 0x00 (0000ms, 0665ms total)
T20E0 000:990 JLINK_WriteReg(R9, 0x20000180)  returns 0x00 (0000ms, 0665ms total)
T20E0 000:990 JLINK_WriteReg(R10, 0x00000000)  returns 0x00 (0000ms, 0665ms total)
T20E0 000:990 JLINK_WriteReg(R11, 0x00000000)  returns 0x00 (0000ms, 0665ms total)
T20E0 000:990 JLINK_WriteReg(R12, 0x00000000)  returns 0x00 (0000ms, 0665ms total)
T20E0 000:990 JLINK_WriteReg(R13 (SP), 0x20001000)  returns 0x00 (0001ms, 0666ms total)
T20E0 000:991 JLINK_WriteReg(R14, 0x20000001)  returns 0x00 (0000ms, 0666ms total)
T20E0 000:991 JLINK_WriteReg(R15 (PC), 0x2000010C)  returns 0x00 (0000ms, 0666ms total)
T20E0 000:991 JLINK_WriteReg(XPSR, 0x01000000)  returns 0x00 (0000ms, 0666ms total)
T20E0 000:991 JLINK_WriteReg(MSP, 0x20001000)  returns 0x00 (0000ms, 0666ms total)
T20E0 000:991 JLINK_WriteReg(PSP, 0x20001000)  returns 0x00 (0000ms, 0666ms total)
T20E0 000:991 JLINK_WriteReg(CFBP, 0x00000000)  returns 0x00 (0000ms, 0666ms total)
T20E0 000:991 JLINK_SetBPEx(Addr = 0x20000000, Type = 0xFFFFFFF2)  returns 0x0000000A (0000ms, 0666ms total)
T20E0 000:991 JLINK_Go() (0003ms, 0669ms total)
T20E0 000:994 JLINK_IsHalted()  returns FALSE (0000ms, 0669ms total)
T20E0 000:996 JLINK_IsHalted()  returns FALSE (0000ms, 0669ms total)
T20E0 000:998 JLINK_IsHalted()  returns FALSE (0000ms, 0669ms total)
T20E0 001:001 JLINK_IsHalted()  returns FALSE (0000ms, 0669ms total)
T20E0 001:003 JLINK_IsHalted()  returns FALSE (0000ms, 0669ms total)
T20E0 001:005 JLINK_IsHalted()  returns FALSE (0000ms, 0669ms total)
T20E0 001:007 JLINK_IsHalted() -- CPU_ReadMem(2 bytes @ 0x20000000)  returns TRUE (0004ms, 0673ms total)
T20E0 001:011 JLINK_ReadReg(R15 (PC))  returns 0x20000000 (0000ms, 0669ms total)
T20E0 001:011 JLINK_ClrBPEx(BPHandle = 0x0000000A)  returns 0x00 (0000ms, 0669ms total)
T20E0 001:011 JLINK_ReadReg(R0)  returns 0x00000000 (0000ms, 0669ms total)
T20E0 001:012 JLINK_WriteMem(0x20000184, 0x0400 Bytes, ...) - Data: 0A 4A 09 68 B1 FB F2 F1 01 EB 81 01 49 00 00 E0 ... -- CPU_WriteMem(1024 bytes @ 0x20000184)  returns 0x400 (0006ms, 0675ms total)
T20E0 001:018 JLINK_WriteReg(R0, 0x08000C00)  returns 0x00 (0000ms, 0675ms total)
T20E0 001:018 JLINK_WriteReg(R1, 0x00000400)  returns 0x00 (0000ms, 0675ms total)
T20E0 001:018 JLINK_WriteReg(R2, 0x20000184)  returns 0x00 (0000ms, 0675ms total)
T20E0 001:018 JLINK_WriteReg(R3, 0x00000000)  returns 0x00 (0000ms, 0675ms total)
T20E0 001:018 JLINK_WriteReg(R4, 0x00000000)  returns 0x00 (0000ms, 0675ms total)
T20E0 001:018 JLINK_WriteReg(R5, 0x00000000)  returns 0x00 (0000ms, 0675ms total)
T20E0 001:018 JLINK_WriteReg(R6, 0x00000000)  returns 0x00 (0000ms, 0675ms total)
T20E0 001:018 JLINK_WriteReg(R7, 0x00000000)  returns 0x00 (0000ms, 0675ms total)
T20E0 001:018 JLINK_WriteReg(R8, 0x00000000)  returns 0x00 (0000ms, 0675ms total)
T20E0 001:018 JLINK_WriteReg(R9, 0x20000180)  returns 0x00 (0001ms, 0676ms total)
T20E0 001:019 JLINK_WriteReg(R10, 0x00000000)  returns 0x00 (0000ms, 0676ms total)
T20E0 001:019 JLINK_WriteReg(R11, 0x00000000)  returns 0x00 (0000ms, 0676ms total)
T20E0 001:019 JLINK_WriteReg(R12, 0x00000000)  returns 0x00 (0000ms, 0676ms total)
T20E0 001:019 JLINK_WriteReg(R13 (SP), 0x20001000)  returns 0x00 (0000ms, 0676ms total)
T20E0 001:019 JLINK_WriteReg(R14, 0x20000001)  returns 0x00 (0000ms, 0676ms total)
T20E0 001:019 JLINK_WriteReg(R15 (PC), 0x2000010C)  returns 0x00 (0000ms, 0676ms total)
T20E0 001:019 JLINK_WriteReg(XPSR, 0x01000000)  returns 0x00 (0000ms, 0676ms total)
T20E0 001:019 JLINK_WriteReg(MSP, 0x20001000)  returns 0x00 (0000ms, 0676ms total)
T20E0 001:019 JLINK_WriteReg(PSP, 0x20001000)  returns 0x00 (0000ms, 0676ms total)
T20E0 001:019 JLINK_WriteReg(CFBP, 0x00000000)  returns 0x00 (0000ms, 0676ms total)
T20E0 001:019 JLINK_SetBPEx(Addr = 0x20000000, Type = 0xFFFFFFF2)  returns 0x0000000B (0001ms, 0677ms total)
T20E0 001:020 JLINK_Go() (0001ms, 0678ms total)
T20E0 001:022 JLINK_IsHalted()  returns FALSE (0000ms, 0679ms total)
T20E0 001:024 JLINK_IsHalted()  returns FALSE (0000ms, 0679ms total)
T20E0 001:027 JLINK_IsHalted()  returns FALSE (0000ms, 0679ms total)
T20E0 001:029 JLINK_IsHalted()  returns FALSE (0000ms, 0679ms total)
T20E0 001:031 JLINK_IsHalted()  returns FALSE (0000ms, 0679ms total)
T20E0 001:033 JLINK_IsHalted() -- CPU_ReadMem(2 bytes @ 0x20000000)  returns TRUE (0003ms, 0682ms total)
T20E0 001:036 JLINK_ReadReg(R15 (PC))  returns 0x20000000 (0001ms, 0680ms total)
T20E0 001:037 JLINK_ClrBPEx(BPHandle = 0x0000000B)  returns 0x00 (0000ms, 0680ms total)
T20E0 001:037 JLINK_ReadReg(R0)  returns 0x00000000 (0000ms, 0680ms total)
T20E0 001:039 JLINK_WriteMem(0x20000184, 0x0400 Bytes, ...) - Data: 88 40 30 42 31 D0 21 68 09 68 C9 06 2D D5 A8 60 ... -- CPU_WriteMem(1024 bytes @ 0x20000184)  returns 0x400 (0006ms, 0686ms total)
T20E0 001:045 JLINK_WriteReg(R0, 0x08001000)  returns 0x00 (0000ms, 0686ms total)
T20E0 001:045 JLINK_WriteReg(R1, 0x00000400)  returns 0x00 (0000ms, 0686ms total)
T20E0 001:045 JLINK_WriteReg(R2, 0x20000184)  returns 0x00 (0000ms, 0686ms total)
T20E0 001:045 JLINK_WriteReg(R3, 0x00000000)  returns 0x00 (0000ms, 0686ms total)
T20E0 001:045 JLINK_WriteReg(R4, 0x00000000)  returns 0x00 (0000ms, 0686ms total)
T20E0 001:045 JLINK_WriteReg(R5, 0x00000000)  returns 0x00 (0000ms, 0686ms total)
T20E0 001:045 JLINK_WriteReg(R6, 0x00000000)  returns 0x00 (0000ms, 0686ms total)
T20E0 001:045 JLINK_WriteReg(R7, 0x00000000)  returns 0x00 (0002ms, 0688ms total)
T20E0 001:047 JLINK_WriteReg(R8, 0x00000000)  returns 0x00 (0000ms, 0688ms total)
T20E0 001:047 JLINK_WriteReg(R9, 0x20000180)  returns 0x00 (0000ms, 0688ms total)
T20E0 001:047 JLINK_WriteReg(R10, 0x00000000)  returns 0x00 (0000ms, 0688ms total)
T20E0 001:047 JLINK_WriteReg(R11, 0x00000000)  returns 0x00 (0000ms, 0688ms total)
T20E0 001:047 JLINK_WriteReg(R12, 0x00000000)  returns 0x00 (0000ms, 0688ms total)
T20E0 001:047 JLINK_WriteReg(R13 (SP), 0x20001000)  returns 0x00 (0000ms, 0688ms total)
T20E0 001:047 JLINK_WriteReg(R14, 0x20000001)  returns 0x00 (0000ms, 0688ms total)
T20E0 001:047 JLINK_WriteReg(R15 (PC), 0x2000010C)  returns 0x00 (0000ms, 0688ms total)
T20E0 001:047 JLINK_WriteReg(XPSR, 0x01000000)  returns 0x00 (0000ms, 0688ms total)
T20E0 001:048 JLINK_WriteReg(MSP, 0x20001000)  returns 0x00 (0000ms, 0689ms total)
T20E0 001:048 JLINK_WriteReg(PSP, 0x20001000)  returns 0x00 (0000ms, 0689ms total)
T20E0 001:048 JLINK_WriteReg(CFBP, 0x00000000)  returns 0x00 (0000ms, 0689ms total)
T20E0 001:048 JLINK_SetBPEx(Addr = 0x20000000, Type = 0xFFFFFFF2)  returns 0x0000000C (0000ms, 0689ms total)
T20E0 001:048 JLINK_Go() (0001ms, 0690ms total)
T20E0 001:049 JLINK_IsHalted()  returns FALSE (0001ms, 0691ms total)
T20E0 001:052 JLINK_IsHalted()  returns FALSE (0061ms, 0751ms total)
T20E0 001:121 JLINK_IsHalted() -- CPU_ReadMem(2 bytes @ 0x20000000)  returns TRUE (0004ms, 0694ms total)
T20E0 001:125 JLINK_ReadReg(R15 (PC))  returns 0x20000000 (0000ms, 0690ms total)
T20E0 001:125 JLINK_ClrBPEx(BPHandle = 0x0000000C)  returns 0x00 (0000ms, 0690ms total)
T20E0 001:125 JLINK_ReadReg(R0)  returns 0x00000000 (0000ms, 0690ms total)
T20E0 001:126 JLINK_WriteMem(0x20000184, 0x0400 Bytes, ...) - Data: 00 30 01 40 00 00 02 40 00 04 02 40 00 08 02 40 ... -- CPU_WriteMem(1024 bytes @ 0x20000184)  returns 0x400 (0005ms, 0695ms total)
T20E0 001:131 JLINK_WriteReg(R0, 0x08001400)  returns 0x00 (0000ms, 0695ms total)
T20E0 001:131 JLINK_WriteReg(R1, 0x00000400)  returns 0x00 (0000ms, 0695ms total)
T20E0 001:132 JLINK_WriteReg(R2, 0x20000184)  returns 0x00 (0000ms, 0696ms total)
T20E0 001:132 JLINK_WriteReg(R3, 0x00000000)  returns 0x00 (0000ms, 0696ms total)
T20E0 001:132 JLINK_WriteReg(R4, 0x00000000)  returns 0x00 (0000ms, 0696ms total)
T20E0 001:132 JLINK_WriteReg(R5, 0x00000000)  returns 0x00 (0000ms, 0696ms total)
T20E0 001:132 JLINK_WriteReg(R6, 0x00000000)  returns 0x00 (0000ms, 0696ms total)
T20E0 001:132 JLINK_WriteReg(R7, 0x00000000)  returns 0x00 (0000ms, 0696ms total)
T20E0 001:132 JLINK_WriteReg(R8, 0x00000000)  returns 0x00 (0000ms, 0696ms total)
T20E0 001:132 JLINK_WriteReg(R9, 0x20000180)  returns 0x00 (0000ms, 0696ms total)
T20E0 001:132 JLINK_WriteReg(R10, 0x00000000)  returns 0x00 (0000ms, 0696ms total)
T20E0 001:132 JLINK_WriteReg(R11, 0x00000000)  returns 0x00 (0000ms, 0696ms total)
T20E0 001:132 JLINK_WriteReg(R12, 0x00000000)  returns 0x00 (0000ms, 0696ms total)
T20E0 001:132 JLINK_WriteReg(R13 (SP), 0x20001000)  returns 0x00 (0001ms, 0697ms total)
T20E0 001:133 JLINK_WriteReg(R14, 0x20000001)  returns 0x00 (0000ms, 0697ms total)
T20E0 001:133 JLINK_WriteReg(R15 (PC), 0x2000010C)  returns 0x00 (0000ms, 0697ms total)
T20E0 001:133 JLINK_WriteReg(XPSR, 0x01000000)  returns 0x00 (0000ms, 0697ms total)
T20E0 001:133 JLINK_WriteReg(MSP, 0x20001000)  returns 0x00 (0000ms, 0697ms total)
T20E0 001:133 JLINK_WriteReg(PSP, 0x20001000)  returns 0x00 (0000ms, 0697ms total)
T20E0 001:133 JLINK_WriteReg(CFBP, 0x00000000)  returns 0x00 (0000ms, 0697ms total)
T20E0 001:133 JLINK_SetBPEx(Addr = 0x20000000, Type = 0xFFFFFFF2)  returns 0x0000000D (0000ms, 0697ms total)
T20E0 001:133 JLINK_Go() (0002ms, 0699ms total)
T20E0 001:135 JLINK_IsHalted()  returns FALSE (0001ms, 0700ms total)
T20E0 001:138 JLINK_IsHalted()  returns FALSE (0000ms, 0699ms total)
T20E0 001:140 JLINK_IsHalted()  returns FALSE (0001ms, 0700ms total)
T20E0 001:143 JLINK_IsHalted()  returns FALSE (0000ms, 0699ms total)
T20E0 001:146 JLINK_IsHalted()  returns FALSE (0001ms, 0700ms total)
T20E0 001:149 JLINK_IsHalted() -- CPU_ReadMem(2 bytes @ 0x20000000)  returns TRUE (0003ms, 0702ms total)
T20E0 001:152 JLINK_ReadReg(R15 (PC))  returns 0x20000000 (0000ms, 0699ms total)
T20E0 001:152 JLINK_ClrBPEx(BPHandle = 0x0000000D)  returns 0x00 (0000ms, 0699ms total)
T20E0 001:152 JLINK_ReadReg(R0)  returns 0x00000000 (0000ms, 0699ms total)
T20E0 001:153 JLINK_WriteMem(0x20000184, 0x0400 Bytes, ...) - Data: 00 68 00 F0 80 50 00 90 08 BD 00 00 44 38 02 40 ... -- CPU_WriteMem(1024 bytes @ 0x20000184)  returns 0x400 (0006ms, 0705ms total)
T20E0 001:159 JLINK_WriteReg(R0, 0x08001800)  returns 0x00 (0000ms, 0705ms total)
T20E0 001:159 JLINK_WriteReg(R1, 0x00000400)  returns 0x00 (0000ms, 0705ms total)
T20E0 001:159 JLINK_WriteReg(R2, 0x20000184)  returns 0x00 (0001ms, 0706ms total)
T20E0 001:160 JLINK_WriteReg(R3, 0x00000000)  returns 0x00 (0000ms, 0706ms total)
T20E0 001:160 JLINK_WriteReg(R4, 0x00000000)  returns 0x00 (0000ms, 0706ms total)
T20E0 001:160 JLINK_WriteReg(R5, 0x00000000)  returns 0x00 (0000ms, 0706ms total)
T20E0 001:160 JLINK_WriteReg(R6, 0x00000000)  returns 0x00 (0000ms, 0706ms total)
T20E0 001:160 JLINK_WriteReg(R7, 0x00000000)  returns 0x00 (0000ms, 0706ms total)
T20E0 001:160 JLINK_WriteReg(R8, 0x00000000)  returns 0x00 (0001ms, 0707ms total)
T20E0 001:161 JLINK_WriteReg(R9, 0x20000180)  returns 0x00 (0000ms, 0707ms total)
T20E0 001:161 JLINK_WriteReg(R10, 0x00000000)  returns 0x00 (0000ms, 0707ms total)
T20E0 001:161 JLINK_WriteReg(R11, 0x00000000)  returns 0x00 (0000ms, 0707ms total)
T20E0 001:161 JLINK_WriteReg(R12, 0x00000000)  returns 0x00 (0000ms, 0707ms total)
T20E0 001:161 JLINK_WriteReg(R13 (SP), 0x20001000)  returns 0x00 (0000ms, 0707ms total)
T20E0 001:161 JLINK_WriteReg(R14, 0x20000001)  returns 0x00 (0001ms, 0708ms total)
T20E0 001:162 JLINK_WriteReg(R15 (PC), 0x2000010C)  returns 0x00 (0000ms, 0708ms total)
T20E0 001:162 JLINK_WriteReg(XPSR, 0x01000000)  returns 0x00 (0000ms, 0708ms total)
T20E0 001:162 JLINK_WriteReg(MSP, 0x20001000)  returns 0x00 (0000ms, 0708ms total)
T20E0 001:162 JLINK_WriteReg(PSP, 0x20001000)  returns 0x00 (0000ms, 0708ms total)
T20E0 001:162 JLINK_WriteReg(CFBP, 0x00000000)  returns 0x00 (0000ms, 0708ms total)
T20E0 001:162 JLINK_SetBPEx(Addr = 0x20000000, Type = 0xFFFFFFF2)  returns 0x0000000E (0001ms, 0709ms total)
T20E0 001:163 JLINK_Go() (0001ms, 0710ms total)
T20E0 001:164 JLINK_IsHalted()  returns FALSE (0001ms, 0711ms total)
T20E0 001:168 JLINK_IsHalted()  returns FALSE (0001ms, 0711ms total)
T20E0 001:171 JLINK_IsHalted()  returns FALSE (0000ms, 0710ms total)
T20E0 001:173 JLINK_IsHalted()  returns FALSE (0000ms, 0710ms total)
T20E0 001:175 JLINK_IsHalted()  returns FALSE (0000ms, 0710ms total)
T20E0 001:180 JLINK_IsHalted() -- CPU_ReadMem(2 bytes @ 0x20000000)  returns TRUE (0003ms, 0713ms total)
T20E0 001:183 JLINK_ReadReg(R15 (PC))  returns 0x20000000 (0000ms, 0710ms total)
T20E0 001:183 JLINK_ClrBPEx(BPHandle = 0x0000000E)  returns 0x00 (0000ms, 0710ms total)
T20E0 001:183 JLINK_ReadReg(R0)  returns 0x00000000 (0000ms, 0710ms total)
T20E0 001:184 JLINK_WriteMem(0x20000184, 0x0400 Bytes, ...) - Data: 41 F0 80 51 01 60 00 68 4F F0 01 08 00 F0 80 50 ... -- CPU_WriteMem(1024 bytes @ 0x20000184)  returns 0x400 (0006ms, 0716ms total)
T20E0 001:190 JLINK_WriteReg(R0, 0x08001C00)  returns 0x00 (0001ms, 0717ms total)
T20E0 001:191 JLINK_WriteReg(R1, 0x00000400)  returns 0x00 (0000ms, 0717ms total)
T20E0 001:191 JLINK_WriteReg(R2, 0x20000184)  returns 0x00 (0000ms, 0717ms total)
T20E0 001:191 JLINK_WriteReg(R3, 0x00000000)  returns 0x00 (0000ms, 0717ms total)
T20E0 001:191 JLINK_WriteReg(R4, 0x00000000)  returns 0x00 (0000ms, 0717ms total)
T20E0 001:191 JLINK_WriteReg(R5, 0x00000000)  returns 0x00 (0001ms, 0718ms total)
T20E0 001:192 JLINK_WriteReg(R6, 0x00000000)  returns 0x00 (0000ms, 0718ms total)
T20E0 001:192 JLINK_WriteReg(R7, 0x00000000)  returns 0x00 (0000ms, 0718ms total)
T20E0 001:192 JLINK_WriteReg(R8, 0x00000000)  returns 0x00 (0000ms, 0718ms total)
T20E0 001:192 JLINK_WriteReg(R9, 0x20000180)  returns 0x00 (0000ms, 0718ms total)
T20E0 001:192 JLINK_WriteReg(R10, 0x00000000)  returns 0x00 (0000ms, 0718ms total)
T20E0 001:192 JLINK_WriteReg(R11, 0x00000000)  returns 0x00 (0001ms, 0719ms total)
T20E0 001:193 JLINK_WriteReg(R12, 0x00000000)  returns 0x00 (0000ms, 0719ms total)
T20E0 001:193 JLINK_WriteReg(R13 (SP), 0x20001000)  returns 0x00 (0000ms, 0719ms total)
T20E0 001:193 JLINK_WriteReg(R14, 0x20000001)  returns 0x00 (0000ms, 0719ms total)
T20E0 001:193 JLINK_WriteReg(R15 (PC), 0x2000010C)  returns 0x00 (0000ms, 0719ms total)
T20E0 001:193 JLINK_WriteReg(XPSR, 0x01000000)  returns 0x00 (0000ms, 0719ms total)
T20E0 001:193 JLINK_WriteReg(MSP, 0x20001000)  returns 0x00 (0000ms, 0719ms total)
T20E0 001:193 JLINK_WriteReg(PSP, 0x20001000)  returns 0x00 (0000ms, 0719ms total)
T20E0 001:193 JLINK_WriteReg(CFBP, 0x00000000)  returns 0x00 (0000ms, 0719ms total)
T20E0 001:193 JLINK_SetBPEx(Addr = 0x20000000, Type = 0xFFFFFFF2)  returns 0x0000000F (0000ms, 0719ms total)
T20E0 001:194 JLINK_Go() (0001ms, 0721ms total)
T20E0 001:195 JLINK_IsHalted()  returns FALSE (0001ms, 0722ms total)
T20E0 001:198 JLINK_IsHalted()  returns FALSE (0000ms, 0721ms total)
T20E0 001:200 JLINK_IsHalted()  returns FALSE (0001ms, 0722ms total)
T20E0 001:203 JLINK_IsHalted()  returns FALSE (0001ms, 0722ms total)
T20E0 001:206 JLINK_IsHalted()  returns FALSE (0000ms, 0721ms total)
T20E0 001:208 JLINK_IsHalted() -- CPU_ReadMem(2 bytes @ 0x20000000)  returns TRUE (0004ms, 0725ms total)
T20E0 001:212 JLINK_ReadReg(R15 (PC))  returns 0x20000000 (0000ms, 0721ms total)
T20E0 001:212 JLINK_ClrBPEx(BPHandle = 0x0000000F)  returns 0x00 (0000ms, 0721ms total)
T20E0 001:212 JLINK_ReadReg(R0)  returns 0x00000000 (0000ms, 0721ms total)
T20E0 001:213 JLINK_WriteMem(0x20000184, 0x0400 Bytes, ...) - Data: 28 46 70 BD CB 68 D1 E9 01 21 20 68 01 F0 AF FD ... -- CPU_WriteMem(1024 bytes @ 0x20000184)  returns 0x400 (0005ms, 0726ms total)
T20E0 001:218 JLINK_WriteReg(R0, 0x08002000)  returns 0x00 (0000ms, 0726ms total)
T20E0 001:218 JLINK_WriteReg(R1, 0x00000400)  returns 0x00 (0000ms, 0726ms total)
T20E0 001:218 JLINK_WriteReg(R2, 0x20000184)  returns 0x00 (0002ms, 0728ms total)
T20E0 001:220 JLINK_WriteReg(R3, 0x00000000)  returns 0x00 (0000ms, 0728ms total)
T20E0 001:220 JLINK_WriteReg(R4, 0x00000000)  returns 0x00 (0000ms, 0728ms total)
T20E0 001:220 JLINK_WriteReg(R5, 0x00000000)  returns 0x00 (0000ms, 0728ms total)
T20E0 001:220 JLINK_WriteReg(R6, 0x00000000)  returns 0x00 (0000ms, 0728ms total)
T20E0 001:220 JLINK_WriteReg(R7, 0x00000000)  returns 0x00 (0000ms, 0728ms total)
T20E0 001:220 JLINK_WriteReg(R8, 0x00000000)  returns 0x00 (0000ms, 0728ms total)
T20E0 001:220 JLINK_WriteReg(R9, 0x20000180)  returns 0x00 (0000ms, 0728ms total)
T20E0 001:220 JLINK_WriteReg(R10, 0x00000000)  returns 0x00 (0000ms, 0728ms total)
T20E0 001:220 JLINK_WriteReg(R11, 0x00000000)  returns 0x00 (0000ms, 0728ms total)
T20E0 001:220 JLINK_WriteReg(R12, 0x00000000)  returns 0x00 (0000ms, 0728ms total)
T20E0 001:220 JLINK_WriteReg(R13 (SP), 0x20001000)  returns 0x00 (0001ms, 0729ms total)
T20E0 001:221 JLINK_WriteReg(R14, 0x20000001)  returns 0x00 (0000ms, 0729ms total)
T20E0 001:221 JLINK_WriteReg(R15 (PC), 0x2000010C)  returns 0x00 (0000ms, 0729ms total)
T20E0 001:221 JLINK_WriteReg(XPSR, 0x01000000)  returns 0x00 (0000ms, 0729ms total)
T20E0 001:221 JLINK_WriteReg(MSP, 0x20001000)  returns 0x00 (0000ms, 0729ms total)
T20E0 001:221 JLINK_WriteReg(PSP, 0x20001000)  returns 0x00 (0000ms, 0729ms total)
T20E0 001:221 JLINK_WriteReg(CFBP, 0x00000000)  returns 0x00 (0000ms, 0729ms total)
T20E0 001:221 JLINK_SetBPEx(Addr = 0x20000000, Type = 0xFFFFFFF2)  returns 0x00000010 (0000ms, 0729ms total)
T20E0 001:221 JLINK_Go() (0002ms, 0731ms total)
T20E0 001:223 JLINK_IsHalted()  returns FALSE (0000ms, 0731ms total)
T20E0 001:225 JLINK_IsHalted()  returns FALSE (0000ms, 0731ms total)
T20E0 001:228 JLINK_IsHalted()  returns FALSE (0000ms, 0731ms total)
T20E0 001:230 JLINK_IsHalted()  returns FALSE (0000ms, 0731ms total)
T20E0 001:232 JLINK_IsHalted()  returns FALSE (0000ms, 0731ms total)
T20E0 001:234 JLINK_IsHalted()  returns FALSE (0000ms, 0731ms total)
T20E0 001:237 JLINK_IsHalted() -- CPU_ReadMem(2 bytes @ 0x20000000)  returns TRUE (0004ms, 0735ms total)
T20E0 001:241 JLINK_ReadReg(R15 (PC))  returns 0x20000000 (0000ms, 0731ms total)
